T5E6C 000:008.273   SEGGER J-Link V6.56 Log File
T5E6C 000:008.370   DLL Compiled: Nov 22 2019 17:07:10
T5E6C 000:008.374   Logging started @ 2024-01-17 05:51
T5E6C 000:008.379 JLINK_SetWarnOutHandler(...)
T5E6C 000:008.384 - 0.006ms
T5E6C 000:008.391 JLINK_OpenEx(...)
T5E6C 000:009.341   Firmware: J-Link V11 compiled Jan  4 2021 16:16:18
T5E6C 000:018.338   Hardware: V11.00
T5E6C 000:018.366   S/N: 50120677
T5E6C 000:018.371   OEM: SEGGER
T5E6C 000:018.376   Feature(s): GDB, JFlash, FlashDL, RDI, FlashBP
T5E6C 000:019.910   TELNET listener socket opened on port 19021
T5E6C 000:036.278   WEBSRV Starting webserver
T5E6C 000:036.483   WEBSRV Webserver running on local port 19080
T5E6C 000:036.491 - 28.101ms returns "O.K."
T5E6C 000:036.503 JLINK_GetEmuCaps()
T5E6C 000:036.508 - 0.006ms returns 0xB9FF7BBF
T5E6C 000:036.516 JLINK_TIF_GetAvailable(...)
T5E6C 000:036.697 - 0.190ms
T5E6C 000:036.714 JLINK_SetErrorOutHandler(...)
T5E6C 000:036.718 - 0.005ms
T5E6C 000:036.749 JLINK_ExecCommand("ProjectFile = "E:\work\LoRa Module\RoomLight\RoomLight\JLinkSettings.ini"", ...). 
T5E6C 000:037.683   Ref file found at: E:\Software\MDK5.27\ARM\Segger\JLinkDevices.ref
T5E6C 000:037.742   XML referenced by ref file: C:\Program Files (x86)\SEGGER\JLink\JLinkDevices.xml
T5E6C 000:038.905   C:\Program Files (x86)\SEGGER\JLink\JLinkDevices.xml evaluated successfully.
T5E6C 000:079.762   Device "CORTEX-M4" selected.
T5E6C 000:080.059 - 43.327ms returns 0x00
T5E6C 000:080.140 JLINK_ExecCommand("Device = ARMCM4_FP", ...). 
T5E6C 000:080.237   Device "CORTEX-M4" selected.
T5E6C 000:080.486 - 0.338ms returns 0x00
T5E6C 000:080.495 JLINK_ExecCommand("DisableConnectionTimeout", ...). 
T5E6C 000:080.503 - 0.004ms returns 0x01
T5E6C 000:080.508 JLINK_GetHardwareVersion()
T5E6C 000:080.514 - 0.008ms returns 0x1ADB0
T5E6C 000:080.524 JLINK_GetDLLVersion()  returns 65600
T5E6C 000:080.531 JLINK_GetFirmwareString(...)
T5E6C 000:080.538 - 0.008ms
T5E6C 000:080.554 JLINK_GetDLLVersion()  returns 65600
T5E6C 000:080.559 JLINK_GetCompileDateTime()
T5E6C 000:080.562 - 0.005ms
T5E6C 000:080.570 JLINK_GetFirmwareString(...)
T5E6C 000:080.574 - 0.005ms
T5E6C 000:080.581 JLINK_GetHardwareVersion()
T5E6C 000:080.584 - 0.004ms returns 0x1ADB0
T5E6C 000:080.602 JLINK_TIF_Select(JLINKARM_TIF_SWD)
T5E6C 000:081.326 - 0.727ms returns 0x00
T5E6C 000:081.342 JLINK_SetSpeed(5000)
T5E6C 000:081.485 - 0.144ms
T5E6C 000:081.491 JLINK_GetId()
T5E6C 000:082.335   Found SW-DP with ID 0x2BA01477
T5E6C 000:085.284   Scanning AP map to find all available APs
T5E6C 000:088.294   AP[1]: Stopped AP scan as end of AP map has been reached
T5E6C 000:088.310   AP[0]: AHB-AP (IDR: 0x24770011)
T5E6C 000:088.318   Iterating through AP map to find AHB-AP to use
T5E6C 000:093.734   AP[0]: Core found
T5E6C 000:093.749   AP[0]: AHB-AP ROM base: 0xE00FF000
T5E6C 000:096.259   CPUID register: 0x410FC241. Implementer code: 0x41 (ARM)
T5E6C 000:096.273   Found Cortex-M4 r0p1, Little endian.
T5E6C 000:197.543    -- Max. mem block: 0x00004778
T5E6C 000:197.580    -- CPU_ReadMem(4 bytes @ 0xE000EDF0)
T5E6C 000:198.088    -- CPU_WriteMem(4 bytes @ 0xE000EDF0)
T5E6C 000:198.375    -- CPU_ReadMem(4 bytes @ 0xE0002000)
T5E6C 000:198.659   FPUnit: 6 code (BP) slots and 2 literal slots
T5E6C 000:198.665    -- CPU_ReadMem(4 bytes @ 0xE000EDFC)
T5E6C 000:198.940    -- CPU_WriteMem(4 bytes @ 0xE000EDFC)
T5E6C 000:199.216    -- CPU_ReadMem(4 bytes @ 0xE0001000)
T5E6C 000:199.463    -- CPU_WriteMem(4 bytes @ 0xE0001000)
T5E6C 000:199.731    -- CPU_ReadMem(4 bytes @ 0xE000ED88)
T5E6C 000:199.984    -- CPU_WriteMem(4 bytes @ 0xE000ED88)
T5E6C 000:200.271    -- CPU_ReadMem(4 bytes @ 0xE000ED88)
T5E6C 000:200.543    -- CPU_WriteMem(4 bytes @ 0xE000ED88)
T5E6C 000:200.803   CoreSight components:
T5E6C 000:200.816   ROMTbl[0] @ E00FF000
T5E6C 000:200.821    -- CPU_ReadMem(16 bytes @ 0xE00FF000)
T5E6C 000:201.146    -- CPU_ReadMem(16 bytes @ 0xE000EFF0)
T5E6C 000:201.466    -- CPU_ReadMem(16 bytes @ 0xE000EFE0)
T5E6C 000:201.789   ROMTbl[0][0]: E000E000, CID: B105E00D, PID: 000BB00C SCS-M7
T5E6C 000:201.833    -- CPU_ReadMem(16 bytes @ 0xE0001FF0)
T5E6C 000:202.172    -- CPU_ReadMem(16 bytes @ 0xE0001FE0)
T5E6C 000:202.502   ROMTbl[0][1]: E0001000, CID: B105E00D, PID: 003BB002 DWT
T5E6C 000:202.508    -- CPU_ReadMem(16 bytes @ 0xE0002FF0)
T5E6C 000:202.838    -- CPU_ReadMem(16 bytes @ 0xE0002FE0)
T5E6C 000:203.148   ROMTbl[0][2]: E0002000, CID: B105E00D, PID: 002BB003 FPB
T5E6C 000:203.154    -- CPU_ReadMem(16 bytes @ 0xE0000FF0)
T5E6C 000:203.492    -- CPU_ReadMem(16 bytes @ 0xE0000FE0)
T5E6C 000:203.795   ROMTbl[0][3]: E0000000, CID: B105E00D, PID: 003BB001 ITM
T5E6C 000:203.802    -- CPU_ReadMem(16 bytes @ 0xE00FF010)
T5E6C 000:204.089    -- CPU_ReadMem(16 bytes @ 0xE0040FF0)
T5E6C 000:204.426    -- CPU_ReadMem(16 bytes @ 0xE0040FE0)
T5E6C 000:204.829   ROMTbl[0][4]: E0040000, CID: B105900D, PID: 000BB9A1 TPIU
T5E6C 000:205.338 - 123.851ms   returns 0x2BA01477
T5E6C 000:205.352 JLINK_GetDLLVersion()  returns 65600
T5E6C 000:205.357 JLINK_CORE_GetFound()
T5E6C 000:205.361 - 0.005ms returns 0xE0000FF
T5E6C 000:205.418 JLINK_GetDebugInfo(0x100 = JLINKARM_ROM_TABLE_ADDR_INDEX)
T5E6C 000:205.423   Value=0xE00FF000
T5E6C 000:205.427 - 0.011ms returns 0x00
T5E6C 000:205.441 JLINK_GetDebugInfo(0x100 = JLINKARM_ROM_TABLE_ADDR_INDEX)
T5E6C 000:205.444   Value=0xE00FF000
T5E6C 000:205.449 - 0.010ms returns 0x00
T5E6C 000:205.454 JLINK_GetDebugInfo(0x101 = JLINKARM_DEBUG_INFO_ETM_ADDR_INDEX)
T5E6C 000:205.457   Value=0x00000000
T5E6C 000:205.462 - 0.010ms returns 0x00
T5E6C 000:205.477   JLINK_ReadMemEx(0xE0041FF0, 0x0010 Bytes, ..., Flags = 0x02000004)
T5E6C 000:205.503    -- CPU_ReadMem(16 bytes @ 0xE0041FF0)
T5E6C 000:205.840   Data:  00 00 00 00 00 00 00 00 00 00 00 00 00 00 00 00
T5E6C 000:205.846 - 0.374ms returns 0x10
T5E6C 000:205.851 JLINK_GetDebugInfo(0x102 = JLINKARM_DEBUG_INFO_MTB_ADDR_INDEX)
T5E6C 000:205.854   Value=0x00000000
T5E6C 000:205.859 - 0.010ms returns 0x00
T5E6C 000:205.864 JLINK_GetDebugInfo(0x103 = JLINKARM_DEBUG_INFO_TPIU_ADDR_INDEX)
T5E6C 000:205.867   Value=0xE0040000
T5E6C 000:205.872 - 0.010ms returns 0x00
T5E6C 000:205.876 JLINK_GetDebugInfo(0x104 = JLINKARM_DEBUG_INFO_ITM_ADDR_INDEX)
T5E6C 000:205.880   Value=0xE0000000
T5E6C 000:205.885 - 0.010ms returns 0x00
T5E6C 000:205.890 JLINK_GetDebugInfo(0x105 = JLINKARM_DEBUG_INFO_DWT_ADDR_INDEX)
T5E6C 000:205.893   Value=0xE0001000
T5E6C 000:205.898 - 0.010ms returns 0x00
T5E6C 000:205.902 JLINK_GetDebugInfo(0x106 = JLINKARM_DEBUG_INFO_FPB_ADDR_INDEX)
T5E6C 000:205.906   Value=0xE0002000
T5E6C 000:205.911 - 0.010ms returns 0x00
T5E6C 000:205.915 JLINK_GetDebugInfo(0x107 = JLINKARM_DEBUG_INFO_NVIC_ADDR_INDEX)
T5E6C 000:205.919   Value=0xE000E000
T5E6C 000:205.924 - 0.010ms returns 0x00
T5E6C 000:205.928 JLINK_GetDebugInfo(0x10C = JLINKARM_DEBUG_INFO_DBG_ADDR_INDEX)
T5E6C 000:205.932   Value=0xE000EDF0
T5E6C 000:205.936 - 0.010ms returns 0x00
T5E6C 000:205.941 JLINK_GetDebugInfo(0x01 = Unknown)
T5E6C 000:205.948   Value=0x00000001
T5E6C 000:205.953 - 0.013ms returns 0x00
T5E6C 000:205.958   JLINK_ReadMemU32(0xE000ED00, 0x0001 Items, ...)
T5E6C 000:205.966    -- CPU_ReadMem(4 bytes @ 0xE000ED00)
T5E6C 000:206.304   Data:  41 C2 0F 41
T5E6C 000:206.315    - CPUID
T5E6C 000:206.320 - 0.364ms returns 1
T5E6C 000:206.326 JLINK_GetDebugInfo(0x10F = JLINKARM_DEBUG_INFO_HAS_CORTEX_M_SECURITY_EXT_INDEX)
T5E6C 000:206.329   Value=0x00000000
T5E6C 000:206.334 - 0.010ms returns 0x00
T5E6C 000:206.341 JLINK_SetResetType(JLINKARM_CM3_RESET_TYPE_NORMAL)
T5E6C 000:206.345 - 0.005ms returns JLINKARM_CM3_RESET_TYPE_NORMAL
T5E6C 000:206.349 JLINK_Reset()
T5E6C 000:206.369   CPU is running
T5E6C 000:206.375    -- CPU_WriteMem(4 bytes @ 0xE000EDF0)
T5E6C 000:206.667   CPU is running
T5E6C 000:206.673    -- CPU_WriteMem(4 bytes @ 0xE000EDFC)
T5E6C 000:206.968   Reset: Halt core after reset via DEMCR.VC_CORERESET.
T5E6C 000:207.393   Reset: Reset device via AIRCR.SYSRESETREQ.
T5E6C 000:207.398   CPU is running
T5E6C 000:207.404    -- CPU_WriteMem(4 bytes @ 0xE000ED0C)
T5E6C 000:260.399    -- CPU_ReadMem(4 bytes @ 0xE000EDF0)
T5E6C 000:260.683    -- CPU_ReadMem(4 bytes @ 0xE000EDF0)
T5E6C 000:260.959   CPU is running
T5E6C 000:260.966    -- CPU_WriteMem(4 bytes @ 0xE000EDF0)
T5E6C 000:261.191   CPU is running
T5E6C 000:261.197    -- CPU_WriteMem(4 bytes @ 0xE000EDFC)
T5E6C 000:266.936    -- CPU_ReadMem(4 bytes @ 0xE000EDF0)
T5E6C 000:269.033    -- CPU_WriteMem(4 bytes @ 0xE0002000)
T5E6C 000:269.286    -- CPU_ReadMem(4 bytes @ 0xE000EDFC)
T5E6C 000:269.588    -- CPU_ReadMem(4 bytes @ 0xE0001000)
T5E6C 000:269.865    -- CPU_WriteMem(4 bytes @ 0xE0001000)
T5E6C 000:270.222 - 63.880ms
T5E6C 000:270.281 JLINK_ReadReg(R15 (PC))
T5E6C 000:270.294 - 0.015ms returns 0x08002098
T5E6C 000:270.299 JLINK_ReadReg(XPSR)
T5E6C 000:270.303 - 0.005ms returns 0x81000000
T5E6C 000:270.308 JLINK_Halt()
T5E6C 000:270.312 - 0.005ms returns 0x00
T5E6C 000:270.318   JLINK_ReadMemU32(0xE000EDF0, 0x0001 Items, ...)
T5E6C 000:270.327    -- CPU_ReadMem(4 bytes @ 0xE000EDF0)
T5E6C 000:270.632   Data:  03 00 03 00
T5E6C 000:270.642    - DHCSR
T5E6C 000:270.647 - 0.331ms returns 1
T5E6C 000:270.654   JLINK_WriteU32(0xE000EDF0, 0xA05F0003)
T5E6C 000:270.659    - DHCSR
T5E6C 000:270.675    -- CPU_WriteMem(4 bytes @ 0xE000EDF0)
T5E6C 000:270.970 - 0.318ms returns 0
T5E6C 000:270.976   JLINK_WriteU32(0xE000EDFC, 0x01000000)
T5E6C 000:270.981    - DEMCR
T5E6C 000:270.988    -- CPU_WriteMem(4 bytes @ 0xE000EDFC)
T5E6C 000:271.251 - 0.277ms returns 0
T5E6C 000:271.300 JLINK_GetHWStatus(...)
T5E6C 000:271.512 - 0.215ms returns 0x00
T5E6C 000:271.530 JLINK_GetNumBPUnits(Type = 0xFFFFFF00)
T5E6C 000:271.534 - 0.005ms returns 0x06
T5E6C 000:271.539 JLINK_GetNumBPUnits(Type = 0xF0)
T5E6C 000:271.542 - 0.005ms returns 0x2000
T5E6C 000:271.547 JLINK_GetNumWPUnits()
T5E6C 000:271.550 - 0.005ms returns 0x04
T5E6C 000:271.562 JLINK_GetSpeed()
T5E6C 000:271.566 - 0.005ms returns 0x1388
T5E6C 000:271.575   JLINK_ReadMemU32(0xE000E004, 0x0001 Items, ...)
T5E6C 000:271.582    -- CPU_ReadMem(4 bytes @ 0xE000E004)
T5E6C 000:271.882   Data:  01 00 00 00
T5E6C 000:271.887 - 0.314ms returns 1
T5E6C 000:271.893   JLINK_ReadMemU32(0xE000E004, 0x0001 Items, ...)
T5E6C 000:271.899    -- CPU_ReadMem(4 bytes @ 0xE000E004)
T5E6C 000:272.153   Data:  01 00 00 00
T5E6C 000:272.158 - 0.267ms returns 1
T5E6C 000:272.164 JLINK_WriteMemEx(0xE0001000, 0x001C Bytes, ..., Flags = 0x02000004)
T5E6C 000:272.168   Data:  01 00 00 00 00 00 00 00 00 00 00 00 00 00 00 00 ...
T5E6C 000:272.389    -- CPU_WriteMem(28 bytes @ 0xE0001000)
T5E6C 000:272.742 - 0.581ms returns 0x1C
T5E6C 000:272.762 JLINK_ReadReg(R15 (PC))
T5E6C 000:272.767 - 0.007ms returns 0x08002098
T5E6C 000:272.772 JLINK_ReadReg(XPSR)
T5E6C 000:272.776 - 0.005ms returns 0x81000000
T5E6C 000:275.159   JLINK_ReadMemEx(0xE0001004, 0x0004 Bytes, ..., Flags = 0x02000000)
T5E6C 000:275.171   Data:  00 00 00 00
T5E6C 000:275.177    - DWT_CYCCNT
T5E6C 000:275.181 - 0.024ms returns 0x04
T5E6C 001:309.068 JLINK_ReadReg(R0)
T5E6C 001:309.472 - 0.414ms returns 0x00249F00
T5E6C 001:309.487 JLINK_ReadReg(R1)
T5E6C 001:309.491 - 0.006ms returns 0xE000E000
T5E6C 001:309.496 JLINK_ReadReg(R2)
T5E6C 001:309.499 - 0.005ms returns 0x000022AB
T5E6C 001:309.504 JLINK_ReadReg(R3)
T5E6C 001:309.508 - 0.005ms returns 0x00134364
T5E6C 001:309.512 JLINK_ReadReg(R4)
T5E6C 001:309.516 - 0.005ms returns 0x000022AB
T5E6C 001:309.520 JLINK_ReadReg(R5)
T5E6C 001:309.524 - 0.005ms returns 0x00005DBF
T5E6C 001:309.529 JLINK_ReadReg(R6)
T5E6C 001:309.532 - 0.005ms returns 0x00000000
T5E6C 001:309.537 JLINK_ReadReg(R7)
T5E6C 001:309.541 - 0.005ms returns 0x00000000
T5E6C 001:309.545 JLINK_ReadReg(R8)
T5E6C 001:309.549 - 0.005ms returns 0x00000000
T5E6C 001:309.553 JLINK_ReadReg(R9)
T5E6C 001:309.557 - 0.005ms returns 0x00000000
T5E6C 001:309.561 JLINK_ReadReg(R10)
T5E6C 001:309.565 - 0.005ms returns 0x00000000
T5E6C 001:309.569 JLINK_ReadReg(R11)
T5E6C 001:309.573 - 0.005ms returns 0x00000000
T5E6C 001:309.577 JLINK_ReadReg(R12)
T5E6C 001:309.581 - 0.007ms returns 0x00000000
T5E6C 001:309.589 JLINK_ReadReg(R13 (SP))
T5E6C 001:309.593 - 0.006ms returns 0x20003FCC
T5E6C 001:309.598 JLINK_ReadReg(R14)
T5E6C 001:309.602 - 0.005ms returns 0x08002E7F
T5E6C 001:309.606 JLINK_ReadReg(R15 (PC))
T5E6C 001:309.610 - 0.005ms returns 0x08002098
T5E6C 001:309.614 JLINK_ReadReg(XPSR)
T5E6C 001:309.618 - 0.005ms returns 0x81000000
T5E6C 001:309.622 JLINK_ReadReg(MSP)
T5E6C 001:309.626 - 0.005ms returns 0x20003FCC
T5E6C 001:309.630 JLINK_ReadReg(PSP)
T5E6C 001:309.634 - 0.005ms returns 0x00000000
T5E6C 001:309.638 JLINK_ReadReg(CFBP)
T5E6C 001:309.642 - 0.005ms returns 0x00000000
T5E6C 001:309.647 JLINK_ReadReg(FPSCR)
T5E6C 001:312.352 - 2.711ms returns 0x00000000
T5E6C 001:312.362 JLINK_ReadReg(FPS0)
T5E6C 001:312.367 - 0.006ms returns 0x00000000
T5E6C 001:312.372 JLINK_ReadReg(FPS1)
T5E6C 001:312.376 - 0.005ms returns 0x00000000
T5E6C 001:312.380 JLINK_ReadReg(FPS2)
T5E6C 001:312.384 - 0.005ms returns 0x00000000
T5E6C 001:312.388 JLINK_ReadReg(FPS3)
T5E6C 001:312.392 - 0.005ms returns 0x00000000
T5E6C 001:312.396 JLINK_ReadReg(FPS4)
T5E6C 001:312.400 - 0.005ms returns 0x00000000
T5E6C 001:312.405 JLINK_ReadReg(FPS5)
T5E6C 001:312.408 - 0.005ms returns 0x00000000
T5E6C 001:312.413 JLINK_ReadReg(FPS6)
T5E6C 001:312.416 - 0.005ms returns 0x00000000
T5E6C 001:312.421 JLINK_ReadReg(FPS7)
T5E6C 001:312.425 - 0.005ms returns 0x00000000
T5E6C 001:312.429 JLINK_ReadReg(FPS8)
T5E6C 001:312.433 - 0.005ms returns 0x00000000
T5E6C 001:312.437 JLINK_ReadReg(FPS9)
T5E6C 001:312.441 - 0.005ms returns 0x00000000
T5E6C 001:312.445 JLINK_ReadReg(FPS10)
T5E6C 001:312.449 - 0.005ms returns 0x00000000
T5E6C 001:312.453 JLINK_ReadReg(FPS11)
T5E6C 001:312.457 - 0.005ms returns 0x00000000
T5E6C 001:312.461 JLINK_ReadReg(FPS12)
T5E6C 001:312.465 - 0.005ms returns 0x00000000
T5E6C 001:312.469 JLINK_ReadReg(FPS13)
T5E6C 001:312.473 - 0.005ms returns 0x00000000
T5E6C 001:312.477 JLINK_ReadReg(FPS14)
T5E6C 001:312.481 - 0.005ms returns 0x00000000
T5E6C 001:312.485 JLINK_ReadReg(FPS15)
T5E6C 001:312.489 - 0.005ms returns 0x00000000
T5E6C 001:312.494 JLINK_ReadReg(FPS16)
T5E6C 001:312.497 - 0.005ms returns 0x00000000
T5E6C 001:312.501 JLINK_ReadReg(FPS17)
T5E6C 001:312.505 - 0.005ms returns 0x00000000
T5E6C 001:312.509 JLINK_ReadReg(FPS18)
T5E6C 001:312.513 - 0.005ms returns 0x00000000
T5E6C 001:312.518 JLINK_ReadReg(FPS19)
T5E6C 001:312.521 - 0.005ms returns 0x00000000
T5E6C 001:312.526 JLINK_ReadReg(FPS20)
T5E6C 001:312.529 - 0.005ms returns 0x00000000
T5E6C 001:312.534 JLINK_ReadReg(FPS21)
T5E6C 001:312.537 - 0.005ms returns 0x00000000
T5E6C 001:312.542 JLINK_ReadReg(FPS22)
T5E6C 001:312.545 - 0.008ms returns 0x00000000
T5E6C 001:312.553 JLINK_ReadReg(FPS23)
T5E6C 001:312.556 - 0.005ms returns 0x00000000
T5E6C 001:312.561 JLINK_ReadReg(FPS24)
T5E6C 001:312.564 - 0.005ms returns 0x00000000
T5E6C 001:312.569 JLINK_ReadReg(FPS25)
T5E6C 001:312.572 - 0.005ms returns 0x00000000
T5E6C 001:312.577 JLINK_ReadReg(FPS26)
T5E6C 001:312.580 - 0.005ms returns 0x00000000
T5E6C 001:312.585 JLINK_ReadReg(FPS27)
T5E6C 001:312.588 - 0.005ms returns 0x00000000
T5E6C 001:312.593 JLINK_ReadReg(FPS28)
T5E6C 001:312.597 - 0.005ms returns 0x00000000
T5E6C 001:312.601 JLINK_ReadReg(FPS29)
T5E6C 001:312.605 - 0.005ms returns 0x00000000
T5E6C 001:312.609 JLINK_ReadReg(FPS30)
T5E6C 001:312.613 - 0.005ms returns 0x00000000
T5E6C 001:312.617 JLINK_ReadReg(FPS31)
T5E6C 001:312.621 - 0.005ms returns 0x00000000
T5E6C 001:312.656   JLINK_ReadMemEx(0x0800D000, 0x0249 Bytes, ..., Flags = 0x02000000)
T5E6C 001:312.666    -- CPU_ReadMem(585 bytes @ 0x0800D000)
T5E6C 001:314.801   Data:  FF FF FF FF FF FF FF FF FF FF FF FF FF FF FF FF ...
T5E6C 001:314.812 - 2.158ms returns 0x249
T5E6C 001:317.467   JLINK_ReadMemEx(0x0800D000, 0x0249 Bytes, ..., Flags = 0x02000000)
T5E6C 001:317.484    -- CPU_ReadMem(585 bytes @ 0x0800D000)
T5E6C 001:319.599   Data:  FF FF FF FF FF FF FF FF FF FF FF FF FF FF FF FF ...
T5E6C 001:319.609 - 2.144ms returns 0x249
T5E6C 001:320.047   JLINK_ReadMemEx(0x0800D000, 0x0249 Bytes, ..., Flags = 0x02000000)
T5E6C 001:320.063    -- CPU_ReadMem(585 bytes @ 0x0800D000)
T5E6C 001:322.199   Data:  FF FF FF FF FF FF FF FF FF FF FF FF FF FF FF FF ...
T5E6C 001:322.208 - 2.163ms returns 0x249
T5E6C 001:705.689   JLINK_ReadMemEx(0x08002098, 0x0002 Bytes, ..., Flags = 0x02000000)
T5E6C 001:705.720    -- CPU_ReadMem(2 bytes @ 0x08002098)
T5E6C 001:706.091   Data:  8A 69
T5E6C 001:706.107 - 0.421ms returns 0x02
T5E6C 001:706.117   JLINK_ReadMemEx(0x0800209A, 0x0002 Bytes, ..., Flags = 0x02000000)
T5E6C 001:706.128    -- CPU_ReadMem(2 bytes @ 0x0800209A)
T5E6C 001:706.462   Data:  94 42
T5E6C 001:706.468 - 0.354ms returns 0x02
T5E6C 001:706.696   JLINK_ReadMemEx(0x0800209A, 0x0002 Bytes, ..., Flags = 0x02000000)
T5E6C 001:706.706    -- CPU_ReadMem(2 bytes @ 0x0800209A)
T5E6C 001:706.987   Data:  94 42
T5E6C 001:706.994 - 0.300ms returns 0x02
T5E6C 001:707.001   JLINK_ReadMemEx(0x0800209C, 0x0002 Bytes, ..., Flags = 0x02000000)
T5E6C 001:707.007    -- CPU_ReadMem(2 bytes @ 0x0800209C)
T5E6C 001:707.300   Data:  FC D0
T5E6C 001:707.311 - 0.312ms returns 0x02
T5E6C 001:707.326   JLINK_ReadMemEx(0x0800209C, 0x0002 Bytes, ..., Flags = 0x02000000)
T5E6C 001:707.335    -- CPU_ReadMem(2 bytes @ 0x0800209C)
T5E6C 001:707.686   Data:  FC D0
T5E6C 001:707.693 - 0.368ms returns 0x02
T5E6C 001:707.698   JLINK_ReadMemEx(0x0800209E, 0x0002 Bytes, ..., Flags = 0x02000000)
T5E6C 001:707.705    -- CPU_ReadMem(2 bytes @ 0x0800209E)
T5E6C 001:707.962   Data:  23 44
T5E6C 001:707.967 - 0.271ms returns 0x02
T5E6C 001:707.977   JLINK_ReadMemEx(0x0800209E, 0x0002 Bytes, ..., Flags = 0x02000000)
T5E6C 001:707.983    -- CPU_ReadMem(2 bytes @ 0x0800209E)
T5E6C 001:708.278   Data:  23 44
T5E6C 001:708.283 - 0.308ms returns 0x02
T5E6C 001:708.289   JLINK_ReadMemEx(0x080020A0, 0x0002 Bytes, ..., Flags = 0x02000000)
T5E6C 001:708.295    -- CPU_ReadMem(2 bytes @ 0x080020A0)
T5E6C 001:708.547   Data:  98 BF
T5E6C 001:708.553 - 0.266ms returns 0x02
T5E6C 001:708.560   JLINK_ReadMemEx(0x080020A0, 0x0002 Bytes, ..., Flags = 0x02000000)
T5E6C 001:708.566    -- CPU_ReadMem(2 bytes @ 0x080020A0)
T5E6C 001:708.833   Data:  98 BF
T5E6C 001:708.839 - 0.281ms returns 0x02
T5E6C 001:708.845   JLINK_ReadMemEx(0x080020A2, 0x0002 Bytes, ..., Flags = 0x02000000)
T5E6C 001:708.851    -- CPU_ReadMem(2 bytes @ 0x080020A2)
T5E6C 001:709.134   Data:  5B 19
T5E6C 001:709.141 - 0.298ms returns 0x02
T5E6C 002:019.945   JLINK_ReadMemEx(0x08000000, 0x0004 Bytes, ..., Flags = 0x02000000)
T5E6C 002:019.969    -- CPU_ReadMem(4 bytes @ 0x08000000)
T5E6C 002:020.286   Data:  00 40 00 20
T5E6C 002:020.292 - 0.350ms returns 0x04
T5E6C 002:020.302 JLINK_WriteReg(R13 (SP), 0x20004000)
T5E6C 002:020.315 - 0.014ms returns 0x00
T5E6C 002:020.321 JLINK_ReadReg(R0)
T5E6C 002:020.619 - 0.300ms returns 0x00249F00
T5E6C 002:020.625 JLINK_ReadReg(R1)
T5E6C 002:020.629 - 0.005ms returns 0xE000E000
T5E6C 002:020.633 JLINK_ReadReg(R2)
T5E6C 002:020.637 - 0.005ms returns 0x000022AB
T5E6C 002:020.641 JLINK_ReadReg(R3)
T5E6C 002:020.645 - 0.005ms returns 0x00134364
T5E6C 002:020.649 JLINK_ReadReg(R4)
T5E6C 002:020.653 - 0.005ms returns 0x000022AB
T5E6C 002:020.657 JLINK_ReadReg(R5)
T5E6C 002:020.661 - 0.005ms returns 0x00005DBF
T5E6C 002:020.665 JLINK_ReadReg(R6)
T5E6C 002:020.669 - 0.005ms returns 0x00000000
T5E6C 002:020.673 JLINK_ReadReg(R7)
T5E6C 002:020.677 - 0.005ms returns 0x00000000
T5E6C 002:020.681 JLINK_ReadReg(R8)
T5E6C 002:020.685 - 0.005ms returns 0x00000000
T5E6C 002:020.689 JLINK_ReadReg(R9)
T5E6C 002:020.693 - 0.005ms returns 0x00000000
T5E6C 002:020.697 JLINK_ReadReg(R10)
T5E6C 002:020.701 - 0.005ms returns 0x00000000
T5E6C 002:020.705 JLINK_ReadReg(R11)
T5E6C 002:020.708 - 0.005ms returns 0x00000000
T5E6C 002:020.713 JLINK_ReadReg(R12)
T5E6C 002:020.716 - 0.005ms returns 0x00000000
T5E6C 002:020.720 JLINK_ReadReg(R13 (SP))
T5E6C 002:020.724 - 0.005ms returns 0x20004000
T5E6C 002:020.729 JLINK_ReadReg(R14)
T5E6C 002:020.732 - 0.005ms returns 0x08002E7F
T5E6C 002:020.739 JLINK_ReadReg(R15 (PC))
T5E6C 002:020.744 - 0.006ms returns 0x08002098
T5E6C 002:020.748 JLINK_ReadReg(XPSR)
T5E6C 002:020.752 - 0.005ms returns 0x81000000
T5E6C 002:020.756 JLINK_ReadReg(MSP)
T5E6C 002:020.760 - 0.005ms returns 0x20004000
T5E6C 002:020.764 JLINK_ReadReg(PSP)
T5E6C 002:020.768 - 0.005ms returns 0x00000000
T5E6C 002:020.772 JLINK_ReadReg(CFBP)
T5E6C 002:020.776 - 0.005ms returns 0x00000000
T5E6C 002:020.780 JLINK_ReadReg(FPSCR)
T5E6C 002:020.784 - 0.005ms returns 0x00000000
T5E6C 002:020.789 JLINK_ReadReg(FPS0)
T5E6C 002:020.792 - 0.005ms returns 0x00000000
T5E6C 002:020.797 JLINK_ReadReg(FPS1)
T5E6C 002:020.800 - 0.005ms returns 0x00000000
T5E6C 002:020.805 JLINK_ReadReg(FPS2)
T5E6C 002:020.808 - 0.005ms returns 0x00000000
T5E6C 002:020.813 JLINK_ReadReg(FPS3)
T5E6C 002:020.816 - 0.005ms returns 0x00000000
T5E6C 002:020.821 JLINK_ReadReg(FPS4)
T5E6C 002:020.824 - 0.005ms returns 0x00000000
T5E6C 002:020.829 JLINK_ReadReg(FPS5)
T5E6C 002:020.833 - 0.005ms returns 0x00000000
T5E6C 002:020.837 JLINK_ReadReg(FPS6)
T5E6C 002:020.840 - 0.005ms returns 0x00000000
T5E6C 002:020.845 JLINK_ReadReg(FPS7)
T5E6C 002:020.848 - 0.005ms returns 0x00000000
T5E6C 002:020.853 JLINK_ReadReg(FPS8)
T5E6C 002:020.856 - 0.005ms returns 0x00000000
T5E6C 002:020.861 JLINK_ReadReg(FPS9)
T5E6C 002:020.864 - 0.005ms returns 0x00000000
T5E6C 002:020.869 JLINK_ReadReg(FPS10)
T5E6C 002:020.872 - 0.005ms returns 0x00000000
T5E6C 002:020.877 JLINK_ReadReg(FPS11)
T5E6C 002:020.881 - 0.005ms returns 0x00000000
T5E6C 002:020.885 JLINK_ReadReg(FPS12)
T5E6C 002:020.888 - 0.005ms returns 0x00000000
T5E6C 002:020.893 JLINK_ReadReg(FPS13)
T5E6C 002:020.899 - 0.008ms returns 0x00000000
T5E6C 002:020.904 JLINK_ReadReg(FPS14)
T5E6C 002:020.908 - 0.005ms returns 0x00000000
T5E6C 002:020.912 JLINK_ReadReg(FPS15)
T5E6C 002:020.915 - 0.005ms returns 0x00000000
T5E6C 002:020.920 JLINK_ReadReg(FPS16)
T5E6C 002:020.923 - 0.005ms returns 0x00000000
T5E6C 002:020.928 JLINK_ReadReg(FPS17)
T5E6C 002:020.932 - 0.005ms returns 0x00000000
T5E6C 002:020.936 JLINK_ReadReg(FPS18)
T5E6C 002:020.939 - 0.005ms returns 0x00000000
T5E6C 002:020.944 JLINK_ReadReg(FPS19)
T5E6C 002:020.947 - 0.005ms returns 0x00000000
T5E6C 002:020.952 JLINK_ReadReg(FPS20)
T5E6C 002:020.955 - 0.005ms returns 0x00000000
T5E6C 002:020.959 JLINK_ReadReg(FPS21)
T5E6C 002:020.963 - 0.005ms returns 0x00000000
T5E6C 002:020.967 JLINK_ReadReg(FPS22)
T5E6C 002:020.971 - 0.005ms returns 0x00000000
T5E6C 002:020.975 JLINK_ReadReg(FPS23)
T5E6C 002:020.979 - 0.005ms returns 0x00000000
T5E6C 002:020.983 JLINK_ReadReg(FPS24)
T5E6C 002:020.987 - 0.005ms returns 0x00000000
T5E6C 002:020.991 JLINK_ReadReg(FPS25)
T5E6C 002:020.994 - 0.005ms returns 0x00000000
T5E6C 002:020.999 JLINK_ReadReg(FPS26)
T5E6C 002:021.002 - 0.005ms returns 0x00000000
T5E6C 002:021.007 JLINK_ReadReg(FPS27)
T5E6C 002:021.010 - 0.005ms returns 0x00000000
T5E6C 002:021.014 JLINK_ReadReg(FPS28)
T5E6C 002:021.018 - 0.005ms returns 0x00000000
T5E6C 002:021.022 JLINK_ReadReg(FPS29)
T5E6C 002:021.026 - 0.005ms returns 0x00000000
T5E6C 002:021.030 JLINK_ReadReg(FPS30)
T5E6C 002:021.034 - 0.005ms returns 0x00000000
T5E6C 002:021.038 JLINK_ReadReg(FPS31)
T5E6C 002:021.042 - 0.005ms returns 0x00000000
T5E6C 002:021.047   JLINK_ReadMemEx(0x08000004, 0x0004 Bytes, ..., Flags = 0x02000000)
T5E6C 002:021.054    -- CPU_ReadMem(4 bytes @ 0x08000004)
T5E6C 002:021.404   Data:  DD 0F 00 08
T5E6C 002:021.418 - 0.373ms returns 0x04
T5E6C 002:021.431 JLINK_WriteReg(R15 (PC), 0x08000FDC)
T5E6C 002:021.440 - 0.010ms returns 0x00
T5E6C 002:021.447 JLINK_ReadReg(R0)
T5E6C 002:021.452 - 0.006ms returns 0x00249F00
T5E6C 002:021.457 JLINK_ReadReg(R1)
T5E6C 002:021.460 - 0.005ms returns 0xE000E000
T5E6C 002:021.465 JLINK_ReadReg(R2)
T5E6C 002:021.468 - 0.005ms returns 0x000022AB
T5E6C 002:021.473 JLINK_ReadReg(R3)
T5E6C 002:021.477 - 0.005ms returns 0x00134364
T5E6C 002:021.481 JLINK_ReadReg(R4)
T5E6C 002:021.485 - 0.005ms returns 0x000022AB
T5E6C 002:021.491 JLINK_ReadReg(R5)
T5E6C 002:021.496 - 0.006ms returns 0x00005DBF
T5E6C 002:021.501 JLINK_ReadReg(R6)
T5E6C 002:021.504 - 0.005ms returns 0x00000000
T5E6C 002:021.509 JLINK_ReadReg(R7)
T5E6C 002:021.512 - 0.005ms returns 0x00000000
T5E6C 002:021.517 JLINK_ReadReg(R8)
T5E6C 002:021.521 - 0.005ms returns 0x00000000
T5E6C 002:021.525 JLINK_ReadReg(R9)
T5E6C 002:021.529 - 0.005ms returns 0x00000000
T5E6C 002:021.533 JLINK_ReadReg(R10)
T5E6C 002:021.537 - 0.005ms returns 0x00000000
T5E6C 002:021.541 JLINK_ReadReg(R11)
T5E6C 002:021.545 - 0.005ms returns 0x00000000
T5E6C 002:021.549 JLINK_ReadReg(R12)
T5E6C 002:021.553 - 0.005ms returns 0x00000000
T5E6C 002:021.557 JLINK_ReadReg(R13 (SP))
T5E6C 002:021.561 - 0.005ms returns 0x20004000
T5E6C 002:021.566 JLINK_ReadReg(R14)
T5E6C 002:021.569 - 0.005ms returns 0x08002E7F
T5E6C 002:021.574 JLINK_ReadReg(R15 (PC))
T5E6C 002:021.577 - 0.005ms returns 0x08000FDC
T5E6C 002:021.582 JLINK_ReadReg(XPSR)
T5E6C 002:021.585 - 0.005ms returns 0x81000000
T5E6C 002:021.590 JLINK_ReadReg(MSP)
T5E6C 002:021.594 - 0.005ms returns 0x20004000
T5E6C 002:021.598 JLINK_ReadReg(PSP)
T5E6C 002:021.602 - 0.005ms returns 0x00000000
T5E6C 002:021.606 JLINK_ReadReg(CFBP)
T5E6C 002:021.610 - 0.005ms returns 0x00000000
T5E6C 002:021.614 JLINK_ReadReg(FPSCR)
T5E6C 002:021.618 - 0.005ms returns 0x00000000
T5E6C 002:021.623 JLINK_ReadReg(FPS0)
T5E6C 002:021.626 - 0.005ms returns 0x00000000
T5E6C 002:021.631 JLINK_ReadReg(FPS1)
T5E6C 002:021.634 - 0.005ms returns 0x00000000
T5E6C 002:021.639 JLINK_ReadReg(FPS2)
T5E6C 002:021.642 - 0.005ms returns 0x00000000
T5E6C 002:021.647 JLINK_ReadReg(FPS3)
T5E6C 002:021.650 - 0.005ms returns 0x00000000
T5E6C 002:021.655 JLINK_ReadReg(FPS4)
T5E6C 002:021.658 - 0.005ms returns 0x00000000
T5E6C 002:021.663 JLINK_ReadReg(FPS5)
T5E6C 002:021.667 - 0.005ms returns 0x00000000
T5E6C 002:021.671 JLINK_ReadReg(FPS6)
T5E6C 002:021.675 - 0.005ms returns 0x00000000
T5E6C 002:021.679 JLINK_ReadReg(FPS7)
T5E6C 002:021.683 - 0.005ms returns 0x00000000
T5E6C 002:021.687 JLINK_ReadReg(FPS8)
T5E6C 002:021.691 - 0.005ms returns 0x00000000
T5E6C 002:021.695 JLINK_ReadReg(FPS9)
T5E6C 002:021.699 - 0.005ms returns 0x00000000
T5E6C 002:021.703 JLINK_ReadReg(FPS10)
T5E6C 002:021.707 - 0.005ms returns 0x00000000
T5E6C 002:021.711 JLINK_ReadReg(FPS11)
T5E6C 002:021.715 - 0.005ms returns 0x00000000
T5E6C 002:021.719 JLINK_ReadReg(FPS12)
T5E6C 002:021.723 - 0.005ms returns 0x00000000
T5E6C 002:021.727 JLINK_ReadReg(FPS13)
T5E6C 002:021.731 - 0.005ms returns 0x00000000
T5E6C 002:021.735 JLINK_ReadReg(FPS14)
T5E6C 002:021.739 - 0.005ms returns 0x00000000
T5E6C 002:021.743 JLINK_ReadReg(FPS15)
T5E6C 002:021.747 - 0.005ms returns 0x00000000
T5E6C 002:021.751 JLINK_ReadReg(FPS16)
T5E6C 002:021.755 - 0.005ms returns 0x00000000
T5E6C 002:021.759 JLINK_ReadReg(FPS17)
T5E6C 002:021.763 - 0.005ms returns 0x00000000
T5E6C 002:021.767 JLINK_ReadReg(FPS18)
T5E6C 002:021.771 - 0.005ms returns 0x00000000
T5E6C 002:021.775 JLINK_ReadReg(FPS19)
T5E6C 002:021.779 - 0.005ms returns 0x00000000
T5E6C 002:021.783 JLINK_ReadReg(FPS20)
T5E6C 002:021.787 - 0.005ms returns 0x00000000
T5E6C 002:021.791 JLINK_ReadReg(FPS21)
T5E6C 002:021.795 - 0.005ms returns 0x00000000
T5E6C 002:021.799 JLINK_ReadReg(FPS22)
T5E6C 002:021.803 - 0.005ms returns 0x00000000
T5E6C 002:021.807 JLINK_ReadReg(FPS23)
T5E6C 002:021.811 - 0.005ms returns 0x00000000
T5E6C 002:021.815 JLINK_ReadReg(FPS24)
T5E6C 002:021.819 - 0.005ms returns 0x00000000
T5E6C 002:021.823 JLINK_ReadReg(FPS25)
T5E6C 002:021.827 - 0.005ms returns 0x00000000
T5E6C 002:021.831 JLINK_ReadReg(FPS26)
T5E6C 002:021.835 - 0.005ms returns 0x00000000
T5E6C 002:021.839 JLINK_ReadReg(FPS27)
T5E6C 002:021.843 - 0.005ms returns 0x00000000
T5E6C 002:021.848 JLINK_ReadReg(FPS28)
T5E6C 002:021.851 - 0.005ms returns 0x00000000
T5E6C 002:021.855 JLINK_ReadReg(FPS29)
T5E6C 002:021.859 - 0.005ms returns 0x00000000
T5E6C 002:021.864 JLINK_ReadReg(FPS30)
T5E6C 002:021.867 - 0.005ms returns 0x00000000
T5E6C 002:021.872 JLINK_ReadReg(FPS31)
T5E6C 002:021.876 - 0.005ms returns 0x00000000
T5E6C 002:021.882 JLINK_WriteMemEx(0xE000ED08, 0x0004 Bytes, ..., Flags = 0x02000000)
T5E6C 002:021.886   Data:  00 00 00 08
T5E6C 002:021.908    -- CPU_WriteMem(4 bytes @ 0xE000ED08)
T5E6C 002:022.183 - 0.306ms returns 0x04
T093C 002:028.892   JLINK_ReadMemEx(0x08000FDC, 0x0002 Bytes, ..., Flags = 0x02000000)
T093C 002:028.914    -- CPU_ReadMem(2 bytes @ 0x08000FDC)
T093C 002:029.243   Data:  00 21
T093C 002:029.251 - 0.361ms returns 0x02
T093C 002:029.291   JLINK_SetBPEx(Addr = 0x08002E04, Type = 0xFFFFFFF2)
T093C 002:029.299 - 0.010ms returns 0x00000001
T093C 002:029.307 JLINK_Go()
T093C 002:029.321    -- CPU_WriteMem(4 bytes @ 0xE0002000)
T093C 002:029.590    -- CPU_ReadMem(4 bytes @ 0xE0001000)
T093C 002:029.891    -- CPU_WriteMem(4 bytes @ 0xE0002008)
T093C 002:029.898    -- CPU_WriteMem(4 bytes @ 0xE000200C)
T093C 002:029.903    -- CPU_WriteMem(4 bytes @ 0xE0002010)
T093C 002:029.908    -- CPU_WriteMem(4 bytes @ 0xE0002014)
T093C 002:029.913    -- CPU_WriteMem(4 bytes @ 0xE0002018)
T093C 002:029.918    -- CPU_WriteMem(4 bytes @ 0xE000201C)
T093C 002:030.732    -- CPU_WriteMem(4 bytes @ 0xE0001004)
T093C 002:031.869 - 2.568ms
T093C 002:132.244 JLINK_IsHalted()
T093C 002:134.113 - 1.883ms returns TRUE
T093C 002:134.135 JLINK_Halt()
T093C 002:134.140 - 0.007ms returns 0x00
T093C 002:134.146 JLINK_IsHalted()
T093C 002:134.151 - 0.007ms returns TRUE
T093C 002:134.156 JLINK_IsHalted()
T093C 002:134.159 - 0.005ms returns TRUE
T093C 002:134.164 JLINK_IsHalted()
T093C 002:134.167 - 0.005ms returns TRUE
T093C 002:134.174 JLINK_ReadReg(R15 (PC))
T093C 002:134.179 - 0.007ms returns 0x08002E04
T093C 002:134.184 JLINK_ReadReg(XPSR)
T093C 002:134.188 - 0.005ms returns 0x61000000
T093C 002:134.196 JLINK_ClrBPEx(BPHandle = 0x00000001)
T093C 002:134.200 - 0.005ms returns 0x00
T093C 002:134.208   JLINK_ReadMemU32(0xE000ED30, 0x0001 Items, ...)
T093C 002:134.218    -- CPU_ReadMem(4 bytes @ 0xE000ED30)
T093C 002:134.519   Data:  02 00 00 00
T093C 002:134.525 - 0.318ms returns 1
T093C 002:134.530   JLINK_ReadMemU32(0xE0001028, 0x0001 Items, ...)
T093C 002:134.537    -- CPU_ReadMem(4 bytes @ 0xE0001028)
T093C 002:134.778   Data:  00 00 00 00
T093C 002:134.784    - DWT_FUNC[0]
T093C 002:134.789 - 0.260ms returns 1
T093C 002:134.794   JLINK_ReadMemU32(0xE0001038, 0x0001 Items, ...)
T093C 002:134.801    -- CPU_ReadMem(4 bytes @ 0xE0001038)
T093C 002:135.084   Data:  00 02 00 00
T093C 002:135.090    - DWT_FUNC[1]
T093C 002:135.095 - 0.302ms returns 1
T093C 002:135.100   JLINK_ReadMemU32(0xE0001048, 0x0001 Items, ...)
T093C 002:135.106    -- CPU_ReadMem(4 bytes @ 0xE0001048)
T093C 002:135.396   Data:  00 00 00 00
T093C 002:135.405    - DWT_FUNC[2]
T093C 002:135.409 - 0.311ms returns 1
T093C 002:135.416   JLINK_ReadMemU32(0xE0001058, 0x0001 Items, ...)
T093C 002:135.426    -- CPU_ReadMem(4 bytes @ 0xE0001058)
T093C 002:135.708   Data:  00 00 00 00
T093C 002:135.716    - DWT_FUNC[3]
T093C 002:135.721 - 0.306ms returns 1
T093C 002:135.772 JLINK_ReadReg(R0)
T093C 002:135.777 - 0.007ms returns 0x00005DBF
T093C 002:135.782 JLINK_ReadReg(R1)
T093C 002:135.786 - 0.005ms returns 0x000000E0
T093C 002:135.790 JLINK_ReadReg(R2)
T093C 002:135.794 - 0.005ms returns 0x00000007
T093C 002:135.798 JLINK_ReadReg(R3)
T093C 002:135.802 - 0.005ms returns 0x08000125
T093C 002:135.807 JLINK_ReadReg(R4)
T093C 002:135.810 - 0.005ms returns 0x000022AB
T093C 002:135.815 JLINK_ReadReg(R5)
T093C 002:135.819 - 0.005ms returns 0x00005DBF
T093C 002:135.823 JLINK_ReadReg(R6)
T093C 002:135.827 - 0.005ms returns 0x00000000
T093C 002:135.831 JLINK_ReadReg(R7)
T093C 002:135.835 - 0.005ms returns 0x00000000
T093C 002:135.839 JLINK_ReadReg(R8)
T093C 002:135.843 - 0.005ms returns 0x00000000
T093C 002:135.847 JLINK_ReadReg(R9)
T093C 002:135.851 - 0.005ms returns 0x00000000
T093C 002:135.855 JLINK_ReadReg(R10)
T093C 002:135.859 - 0.005ms returns 0x00000000
T093C 002:135.864 JLINK_ReadReg(R11)
T093C 002:135.867 - 0.040ms returns 0x00000000
T093C 002:135.909 JLINK_ReadReg(R12)
T093C 002:135.913 - 0.005ms returns 0x00000000
T093C 002:135.918 JLINK_ReadReg(R13 (SP))
T093C 002:135.922 - 0.005ms returns 0x20004000
T093C 002:135.926 JLINK_ReadReg(R14)
T093C 002:135.930 - 0.005ms returns 0x0800100F
T093C 002:135.935 JLINK_ReadReg(R15 (PC))
T093C 002:135.938 - 0.005ms returns 0x08002E04
T093C 002:135.943 JLINK_ReadReg(XPSR)
T093C 002:135.947 - 0.005ms returns 0x61000000
T093C 002:135.951 JLINK_ReadReg(MSP)
T093C 002:135.955 - 0.005ms returns 0x20004000
T093C 002:135.959 JLINK_ReadReg(PSP)
T093C 002:135.963 - 0.005ms returns 0x00000000
T093C 002:135.967 JLINK_ReadReg(CFBP)
T093C 002:135.971 - 0.005ms returns 0x00000000
T093C 002:135.976 JLINK_ReadReg(FPSCR)
T093C 002:138.621 - 2.652ms returns 0x00000000
T093C 002:138.632 JLINK_ReadReg(FPS0)
T093C 002:138.638 - 0.006ms returns 0x00000000
T093C 002:138.642 JLINK_ReadReg(FPS1)
T093C 002:138.646 - 0.005ms returns 0x00000000
T093C 002:138.650 JLINK_ReadReg(FPS2)
T093C 002:138.654 - 0.005ms returns 0x00000000
T093C 002:138.659 JLINK_ReadReg(FPS3)
T093C 002:138.662 - 0.005ms returns 0x00000000
T093C 002:138.667 JLINK_ReadReg(FPS4)
T093C 002:138.670 - 0.005ms returns 0x00000000
T093C 002:138.675 JLINK_ReadReg(FPS5)
T093C 002:138.678 - 0.005ms returns 0x00000000
T093C 002:138.683 JLINK_ReadReg(FPS6)
T093C 002:138.686 - 0.005ms returns 0x00000000
T093C 002:138.691 JLINK_ReadReg(FPS7)
T093C 002:138.695 - 0.005ms returns 0x00000000
T093C 002:138.699 JLINK_ReadReg(FPS8)
T093C 002:138.703 - 0.005ms returns 0x00000000
T093C 002:138.707 JLINK_ReadReg(FPS9)
T093C 002:138.711 - 0.005ms returns 0x00000000
T093C 002:138.715 JLINK_ReadReg(FPS10)
T093C 002:138.719 - 0.005ms returns 0x00000000
T093C 002:138.723 JLINK_ReadReg(FPS11)
T093C 002:138.727 - 0.005ms returns 0x00000000
T093C 002:138.731 JLINK_ReadReg(FPS12)
T093C 002:138.735 - 0.005ms returns 0x00000000
T093C 002:138.739 JLINK_ReadReg(FPS13)
T093C 002:138.743 - 0.005ms returns 0x00000000
T093C 002:138.747 JLINK_ReadReg(FPS14)
T093C 002:138.751 - 0.005ms returns 0x00000000
T093C 002:138.755 JLINK_ReadReg(FPS15)
T093C 002:138.759 - 0.005ms returns 0x00000000
T093C 002:138.763 JLINK_ReadReg(FPS16)
T093C 002:138.767 - 0.005ms returns 0x00000000
T093C 002:138.771 JLINK_ReadReg(FPS17)
T093C 002:138.775 - 0.005ms returns 0x00000000
T093C 002:138.779 JLINK_ReadReg(FPS18)
T093C 002:138.783 - 0.005ms returns 0x00000000
T093C 002:138.788 JLINK_ReadReg(FPS19)
T093C 002:138.791 - 0.005ms returns 0x00000000
T093C 002:138.796 JLINK_ReadReg(FPS20)
T093C 002:138.799 - 0.005ms returns 0x00000000
T093C 002:138.804 JLINK_ReadReg(FPS21)
T093C 002:138.807 - 0.005ms returns 0x00000000
T093C 002:138.812 JLINK_ReadReg(FPS22)
T093C 002:138.815 - 0.005ms returns 0x00000000
T093C 002:138.820 JLINK_ReadReg(FPS23)
T093C 002:138.824 - 0.005ms returns 0x00000000
T093C 002:138.828 JLINK_ReadReg(FPS24)
T093C 002:138.831 - 0.005ms returns 0x00000000
T093C 002:138.836 JLINK_ReadReg(FPS25)
T093C 002:138.839 - 0.005ms returns 0x00000000
T093C 002:138.844 JLINK_ReadReg(FPS26)
T093C 002:138.848 - 0.005ms returns 0x00000000
T093C 002:138.852 JLINK_ReadReg(FPS27)
T093C 002:138.856 - 0.005ms returns 0x00000000
T093C 002:138.860 JLINK_ReadReg(FPS28)
T093C 002:138.864 - 0.005ms returns 0x00000000
T093C 002:138.868 JLINK_ReadReg(FPS29)
T093C 002:138.872 - 0.005ms returns 0x00000000
T093C 002:138.876 JLINK_ReadReg(FPS30)
T093C 002:138.880 - 0.005ms returns 0x00000000
T093C 002:138.884 JLINK_ReadReg(FPS31)
T093C 002:138.888 - 0.005ms returns 0x00000000
T5E6C 002:149.663   JLINK_ReadMemEx(0x08005164, 0x0002 Bytes, ..., Flags = 0x02000000)
T5E6C 002:149.685    -- CPU_ReadMem(64 bytes @ 0x08005140)
T5E6C 002:150.171    -- Updating DA cache (64 bytes @ 0x08005140)
T5E6C 002:150.190    -- Read from DA cache (2 bytes @ 0x08005164)
T5E6C 002:150.196   Data:  07 FB
T5E6C 002:150.201 - 0.540ms returns 0x02
T5E6C 002:150.209   JLINK_ReadMemEx(0x08005166, 0x0002 Bytes, ..., Flags = 0x02000000)
T5E6C 002:150.217    -- Read from DA cache (2 bytes @ 0x08005166)
T5E6C 002:150.225   Data:  08 52
T5E6C 002:150.230 - 0.023ms returns 0x02
T5E6C 002:150.242   JLINK_ReadMemEx(0x08005168, 0x0002 Bytes, ..., Flags = 0x02000000)
T5E6C 002:150.248    -- Read from DA cache (2 bytes @ 0x08005168)
T5E6C 002:150.253   Data:  34 4F
T5E6C 002:150.258 - 0.017ms returns 0x02
T5E6C 002:150.263   JLINK_ReadMemEx(0x0800516A, 0x0002 Bytes, ..., Flags = 0x02000000)
T5E6C 002:150.268    -- Read from DA cache (2 bytes @ 0x0800516A)
T5E6C 002:150.273   Data:  97 F8
T5E6C 002:150.278 - 0.017ms returns 0x02
T5E6C 002:150.285   JLINK_ReadMemEx(0x0800516A, 0x0002 Bytes, ..., Flags = 0x02000000)
T5E6C 002:150.291    -- Read from DA cache (2 bytes @ 0x0800516A)
T5E6C 002:150.296   Data:  97 F8
T5E6C 002:150.301 - 0.017ms returns 0x02
T5E6C 002:150.306   JLINK_ReadMemEx(0x0800516C, 0x0002 Bytes, ..., Flags = 0x02000000)
T5E6C 002:150.311    -- Read from DA cache (2 bytes @ 0x0800516C)
T5E6C 002:150.316   Data:  02 32
T5E6C 002:150.321 - 0.017ms returns 0x02
T5E6C 002:150.327   JLINK_ReadMemEx(0x0800516E, 0x0002 Bytes, ..., Flags = 0x02000000)
T5E6C 002:150.333    -- Read from DA cache (2 bytes @ 0x0800516E)
T5E6C 002:150.338   Data:  82 F8
T5E6C 002:150.343 - 0.017ms returns 0x02
T5E6C 002:150.347   JLINK_ReadMemEx(0x08005170, 0x0002 Bytes, ..., Flags = 0x02000000)
T5E6C 002:150.353    -- Read from DA cache (2 bytes @ 0x08005170)
T5E6C 002:150.357   Data:  3E 30
T5E6C 002:150.367 - 0.023ms returns 0x02
T5E6C 002:164.409   JLINK_ReadMemEx(0x200004C0, 0x0004 Bytes, ..., Flags = 0x02000000)
T5E6C 002:164.442    -- CPU_ReadMem(4 bytes @ 0x200004C0)
T5E6C 002:164.736   Data:  00 00 00 00
T5E6C 002:164.743 - 0.336ms returns 0x04
T5E6C 002:164.811   JLINK_ReadMemEx(0x200004C0, 0x0004 Bytes, ..., Flags = 0x02000000)
T5E6C 002:164.819    -- CPU_ReadMem(4 bytes @ 0x200004C0)
T5E6C 002:165.116   Data:  00 00 00 00
T5E6C 002:165.122 - 0.312ms returns 0x04
T5E6C 002:165.139   JLINK_ReadMemEx(0x200004C0, 0x0004 Bytes, ..., Flags = 0x02000000)
T5E6C 002:165.146    -- CPU_ReadMem(4 bytes @ 0x200004C0)
T5E6C 002:165.439   Data:  00 00 00 00
T5E6C 002:165.444 - 0.307ms returns 0x04
T5E6C 002:169.367   JLINK_ReadMemEx(0x200005C8, 0x0001 Bytes, ..., Flags = 0x02000000)
T5E6C 002:169.400    -- CPU_ReadMem(1 bytes @ 0x200005C8)
T5E6C 002:169.768   Data:  00
T5E6C 002:169.774 - 0.410ms returns 0x01
T5E6C 002:169.800   JLINK_ReadMemEx(0x200005C8, 0x0001 Bytes, ..., Flags = 0x02000000)
T5E6C 002:169.808    -- CPU_ReadMem(1 bytes @ 0x200005C8)
T5E6C 002:170.115   Data:  00
T5E6C 002:170.130 - 0.331ms returns 0x01
T5E6C 002:170.158   JLINK_ReadMemEx(0x200005C8, 0x0001 Bytes, ..., Flags = 0x02000000)
T5E6C 002:170.169    -- CPU_ReadMem(1 bytes @ 0x200005C8)
T5E6C 002:170.494   Data:  00
T5E6C 002:170.501 - 0.344ms returns 0x01
T5E6C 002:200.395   JLINK_ReadMemEx(0x200004C0, 0x0004 Bytes, ..., Flags = 0x02000000)
T5E6C 002:200.433    -- CPU_ReadMem(4 bytes @ 0x200004C0)
T5E6C 002:200.740   Data:  00 00 00 00
T5E6C 002:200.754 - 0.362ms returns 0x04
T5E6C 002:200.778   JLINK_ReadMemEx(0x200005C8, 0x0001 Bytes, ..., Flags = 0x02000000)
T5E6C 002:200.789    -- CPU_ReadMem(1 bytes @ 0x200005C8)
T5E6C 002:201.114   Data:  00
T5E6C 002:201.121 - 0.345ms returns 0x01
T5E6C 002:202.400   JLINK_ReadMemEx(0x08002E04, 0x0002 Bytes, ..., Flags = 0x02000000)
T5E6C 002:202.415    -- CPU_ReadMem(64 bytes @ 0x08002E00)
T5E6C 002:202.936    -- Updating DA cache (64 bytes @ 0x08002E00)
T5E6C 002:202.947    -- Read from DA cache (2 bytes @ 0x08002E04)
T5E6C 002:202.953   Data:  F0 B5
T5E6C 002:202.958 - 0.560ms returns 0x02
T5E6C 002:202.967   JLINK_ReadMemEx(0x08002E06, 0x0002 Bytes, ..., Flags = 0x02000000)
T5E6C 002:202.975    -- Read from DA cache (2 bytes @ 0x08002E06)
T5E6C 002:202.980   Data:  01 21
T5E6C 002:202.985 - 0.019ms returns 0x02
T5E6C 002:202.997   JLINK_ReadMemEx(0x08002E06, 0x0002 Bytes, ..., Flags = 0x02000000)
T5E6C 002:203.003    -- Read from DA cache (2 bytes @ 0x08002E06)
T5E6C 002:203.008   Data:  01 21
T5E6C 002:203.013 - 0.020ms returns 0x02
T5E6C 002:203.023   JLINK_ReadMemEx(0x08002E08, 0x0002 Bytes, ..., Flags = 0x02000000)
T5E6C 002:203.029    -- Read from DA cache (2 bytes @ 0x08002E08)
T5E6C 002:203.034   Data:  85 B0
T5E6C 002:203.039 - 0.017ms returns 0x02
T5E6C 002:203.045   JLINK_ReadMemEx(0x08002E08, 0x0002 Bytes, ..., Flags = 0x02000000)
T5E6C 002:203.051    -- Read from DA cache (2 bytes @ 0x08002E08)
T5E6C 002:203.056   Data:  85 B0
T5E6C 002:203.061 - 0.017ms returns 0x02
T5E6C 002:203.065   JLINK_ReadMemEx(0x08002E0A, 0x0002 Bytes, ..., Flags = 0x02000000)
T5E6C 002:203.071    -- Read from DA cache (2 bytes @ 0x08002E0A)
T5E6C 002:203.076   Data:  11 20
T5E6C 002:203.081 - 0.017ms returns 0x02
T5E6C 002:203.087   JLINK_ReadMemEx(0x08002E0A, 0x0002 Bytes, ..., Flags = 0x02000000)
T5E6C 002:203.093    -- Read from DA cache (2 bytes @ 0x08002E0A)
T5E6C 002:203.098   Data:  11 20
T5E6C 002:203.102 - 0.017ms returns 0x02
T5E6C 002:203.107   JLINK_ReadMemEx(0x08002E0C, 0x0002 Bytes, ..., Flags = 0x02000000)
T5E6C 002:203.112    -- Read from DA cache (2 bytes @ 0x08002E0C)
T5E6C 002:203.118   Data:  FF F7
T5E6C 002:203.122 - 0.017ms returns 0x02
T093C 002:599.164   JLINK_ReadMemEx(0x08002E04, 0x0002 Bytes, ..., Flags = 0x02000000)
T093C 002:599.203    -- Read from DA cache (2 bytes @ 0x08002E04)
T093C 002:599.210   Data:  F0 B5
T093C 002:599.217 - 0.057ms returns 0x02
T093C 002:599.228   JLINK_SetBPEx(Addr = 0x080057D6, Type = 0xFFFFFFF2)
T093C 002:599.237 - 0.011ms returns 0x00000002
T093C 002:599.246 JLINK_Go()
T093C 002:599.257    -- CPU_WriteMem(4 bytes @ 0xE0002000)
T093C 002:599.641    -- CPU_ReadMem(4 bytes @ 0xE0001000)
T093C 002:599.971    -- CPU_WriteMem(4 bytes @ 0xE0002008)
T093C 002:600.649 - 1.407ms
T093C 002:700.791 JLINK_IsHalted()
T093C 002:701.095 - 0.307ms returns FALSE
T093C 002:801.622 JLINK_IsHalted()
T093C 002:803.486 - 1.887ms returns TRUE
T093C 002:803.516 JLINK_Halt()
T093C 002:803.520 - 0.005ms returns 0x00
T093C 002:803.525 JLINK_IsHalted()
T093C 002:803.528 - 0.005ms returns TRUE
T093C 002:803.533 JLINK_IsHalted()
T093C 002:803.536 - 0.005ms returns TRUE
T093C 002:803.540 JLINK_IsHalted()
T093C 002:803.544 - 0.004ms returns TRUE
T093C 002:803.550 JLINK_ReadReg(R15 (PC))
T093C 002:803.557 - 0.008ms returns 0xFFFFFFFE
T093C 002:803.562 JLINK_ReadReg(XPSR)
T093C 002:803.566 - 0.005ms returns 0x61000003
T093C 002:803.576 JLINK_ClrBPEx(BPHandle = 0x00000002)
T093C 002:803.580 - 0.006ms returns 0x00
T093C 002:803.587   JLINK_ReadMemU32(0xE000ED30, 0x0001 Items, ...)
T093C 002:803.596    -- CPU_ReadMem(4 bytes @ 0xE000ED30)
T093C 002:803.920   Data:  01 00 00 00
T093C 002:803.932 - 0.346ms returns 1
T093C 002:803.939   JLINK_ReadMemU32(0xE0001028, 0x0001 Items, ...)
T093C 002:803.948    -- CPU_ReadMem(4 bytes @ 0xE0001028)
T093C 002:804.260   Data:  00 00 00 00
T093C 002:804.266    - DWT_FUNC[0]
T093C 002:804.271 - 0.334ms returns 1
T093C 002:804.276   JLINK_ReadMemU32(0xE0001038, 0x0001 Items, ...)
T093C 002:804.283    -- CPU_ReadMem(4 bytes @ 0xE0001038)
T093C 002:804.564   Data:  00 02 00 00
T093C 002:804.575    - DWT_FUNC[1]
T093C 002:804.580 - 0.305ms returns 1
T093C 002:804.588   JLINK_ReadMemU32(0xE0001048, 0x0001 Items, ...)
T093C 002:804.597    -- CPU_ReadMem(4 bytes @ 0xE0001048)
T093C 002:804.881   Data:  00 00 00 00
T093C 002:804.889    - DWT_FUNC[2]
T093C 002:804.894 - 0.308ms returns 1
T093C 002:804.900   JLINK_ReadMemU32(0xE0001058, 0x0001 Items, ...)
T093C 002:804.908    -- CPU_ReadMem(4 bytes @ 0xE0001058)
T093C 002:805.212   Data:  00 00 00 00
T093C 002:805.229    - DWT_FUNC[3]
T093C 002:805.233 - 0.335ms returns 1
T093C 002:805.279 JLINK_ReadReg(R0)
T093C 002:805.285 - 0.007ms returns 0x08010000
T093C 002:805.289 JLINK_ReadReg(R1)
T093C 002:805.293 - 0.005ms returns 0x80000000
T093C 002:805.297 JLINK_ReadReg(R2)
T093C 002:805.301 - 0.005ms returns 0xFFFFFFFF
T093C 002:805.305 JLINK_ReadReg(R3)
T093C 002:805.309 - 0.005ms returns 0xE000E000
T093C 002:805.313 JLINK_ReadReg(R4)
T093C 002:805.318 - 0.007ms returns 0x0800E000
T093C 002:805.328 JLINK_ReadReg(R5)
T093C 002:805.336 - 0.010ms returns 0x20000CAC
T093C 002:805.342 JLINK_ReadReg(R6)
T093C 002:805.347 - 0.007ms returns 0x200009CC
T093C 002:805.353 JLINK_ReadReg(R7)
T093C 002:805.357 - 0.005ms returns 0x00000000
T093C 002:805.361 JLINK_ReadReg(R8)
T093C 002:805.365 - 0.005ms returns 0x00000000
T093C 002:805.369 JLINK_ReadReg(R9)
T093C 002:805.373 - 0.005ms returns 0x00000000
T093C 002:805.377 JLINK_ReadReg(R10)
T093C 002:805.381 - 0.005ms returns 0x00000000
T093C 002:805.385 JLINK_ReadReg(R11)
T093C 002:805.389 - 0.005ms returns 0x00000000
T093C 002:805.393 JLINK_ReadReg(R12)
T093C 002:805.397 - 0.005ms returns 0x00000001
T093C 002:805.401 JLINK_ReadReg(R13 (SP))
T093C 002:805.405 - 0.005ms returns 0xFFFFFFD8
T093C 002:805.410 JLINK_ReadReg(R14)
T093C 002:805.413 - 0.005ms returns 0xFFFFFFF9
T093C 002:805.418 JLINK_ReadReg(R15 (PC))
T093C 002:805.421 - 0.005ms returns 0xFFFFFFFE
T093C 002:805.426 JLINK_ReadReg(XPSR)
T093C 002:805.429 - 0.005ms returns 0x61000003
T093C 002:805.434 JLINK_ReadReg(MSP)
T093C 002:805.437 - 0.005ms returns 0xFFFFFFD8
T093C 002:805.442 JLINK_ReadReg(PSP)
T093C 002:805.445 - 0.005ms returns 0x00000000
T093C 002:805.449 JLINK_ReadReg(CFBP)
T093C 002:805.453 - 0.005ms returns 0x00000000
T093C 002:805.457 JLINK_ReadReg(FPSCR)
T093C 002:808.089 - 2.638ms returns 0x00000000
T093C 002:808.100 JLINK_ReadReg(FPS0)
T093C 002:808.105 - 0.006ms returns 0x00000000
T093C 002:808.109 JLINK_ReadReg(FPS1)
T093C 002:808.113 - 0.005ms returns 0x00000000
T093C 002:808.117 JLINK_ReadReg(FPS2)
T093C 002:808.121 - 0.005ms returns 0x00000000
T093C 002:808.125 JLINK_ReadReg(FPS3)
T093C 002:808.129 - 0.005ms returns 0x00000000
T093C 002:808.133 JLINK_ReadReg(FPS4)
T093C 002:808.137 - 0.005ms returns 0x00000000
T093C 002:808.141 JLINK_ReadReg(FPS5)
T093C 002:808.145 - 0.005ms returns 0x00000000
T093C 002:808.149 JLINK_ReadReg(FPS6)
T093C 002:808.153 - 0.005ms returns 0x00000000
T093C 002:808.158 JLINK_ReadReg(FPS7)
T093C 002:808.161 - 0.005ms returns 0x00000000
T093C 002:808.166 JLINK_ReadReg(FPS8)
T093C 002:808.169 - 0.005ms returns 0x00000000
T093C 002:808.173 JLINK_ReadReg(FPS9)
T093C 002:808.177 - 0.005ms returns 0x00000000
T093C 002:808.181 JLINK_ReadReg(FPS10)
T093C 002:808.185 - 0.005ms returns 0x00000000
T093C 002:808.189 JLINK_ReadReg(FPS11)
T093C 002:808.194 - 0.011ms returns 0x00000000
T093C 002:808.204 JLINK_ReadReg(FPS12)
T093C 002:808.207 - 0.005ms returns 0x00000000
T093C 002:808.212 JLINK_ReadReg(FPS13)
T093C 002:808.216 - 0.005ms returns 0x00000000
T093C 002:808.220 JLINK_ReadReg(FPS14)
T093C 002:808.224 - 0.005ms returns 0x00000000
T093C 002:808.228 JLINK_ReadReg(FPS15)
T093C 002:808.232 - 0.005ms returns 0x00000000
T093C 002:808.236 JLINK_ReadReg(FPS16)
T093C 002:808.240 - 0.005ms returns 0x00000000
T093C 002:808.244 JLINK_ReadReg(FPS17)
T093C 002:808.248 - 0.005ms returns 0x00000000
T093C 002:808.252 JLINK_ReadReg(FPS18)
T093C 002:808.256 - 0.005ms returns 0x00000000
T093C 002:808.263 JLINK_ReadReg(FPS19)
T093C 002:808.267 - 0.005ms returns 0x00000000
T093C 002:808.271 JLINK_ReadReg(FPS20)
T093C 002:808.275 - 0.005ms returns 0x00000000
T093C 002:808.279 JLINK_ReadReg(FPS21)
T093C 002:808.283 - 0.011ms returns 0x00000000
T093C 002:808.294 JLINK_ReadReg(FPS22)
T093C 002:808.298 - 0.005ms returns 0x00000000
T093C 002:808.302 JLINK_ReadReg(FPS23)
T093C 002:808.306 - 0.005ms returns 0x00000000
T093C 002:808.310 JLINK_ReadReg(FPS24)
T093C 002:808.314 - 0.005ms returns 0x00000000
T093C 002:808.318 JLINK_ReadReg(FPS25)
T093C 002:808.321 - 0.005ms returns 0x00000000
T093C 002:808.326 JLINK_ReadReg(FPS26)
T093C 002:808.329 - 0.005ms returns 0x00000000
T093C 002:808.334 JLINK_ReadReg(FPS27)
T093C 002:808.337 - 0.005ms returns 0x00000000
T093C 002:808.341 JLINK_ReadReg(FPS28)
T093C 002:808.345 - 0.005ms returns 0x00000000
T093C 002:808.349 JLINK_ReadReg(FPS29)
T093C 002:808.353 - 0.005ms returns 0x00000000
T093C 002:808.357 JLINK_ReadReg(FPS30)
T093C 002:808.361 - 0.007ms returns 0x00000000
T093C 002:808.368 JLINK_ReadReg(FPS31)
T093C 002:808.372 - 0.005ms returns 0x00000000
T5E6C 002:808.441   JLINK_ReadMemEx(0x200004C0, 0x0004 Bytes, ..., Flags = 0x02000000)
T5E6C 002:808.456    -- CPU_ReadMem(4 bytes @ 0x200004C0)
T5E6C 002:808.755   Data:  62 00 00 00
T5E6C 002:808.761 - 0.323ms returns 0x04
T5E6C 002:809.132   JLINK_ReadMemEx(0x200005C8, 0x0001 Bytes, ..., Flags = 0x02000000)
T5E6C 002:809.144    -- CPU_ReadMem(1 bytes @ 0x200005C8)
T5E6C 002:809.445   Data:  00
T5E6C 002:809.455 - 0.325ms returns 0x01
T5E6C 002:811.827   JLINK_ReadMemEx(0xFFFFFFFE, 0x0002 Bytes, ..., Flags = 0x02000000)
T5E6C 002:811.845    -- CPU_ReadMem(64 bytes @ 0xFFFFFFC0)
T5E6C 002:812.302    -- CPU_ReadMem(2 bytes @ 0xFFFFFFFE)
T5E6C 002:812.735   Data:  AA AA
T5E6C 002:812.741 - 0.916ms returns 0xFFFFFFFF
T5E6C 002:812.747   JLINK_ReadMemEx(0xFFFFFFFE, 0x0002 Bytes, ..., Flags = 0x02000000)
T5E6C 002:812.756    -- CPU_ReadMem(64 bytes @ 0xFFFFFFC0)
T5E6C 002:813.230    -- CPU_ReadMem(2 bytes @ 0xFFFFFFFE)
T5E6C 002:813.519   Data:  AA AA
T5E6C 002:813.525 - 0.779ms returns 0xFFFFFFFF
T5E6C 002:813.530   JLINK_ReadMemEx(0xFFFFFFFE, 0x0002 Bytes, ..., Flags = 0x02000000)
T5E6C 002:813.536    -- CPU_ReadMem(64 bytes @ 0xFFFFFFC0)
T5E6C 002:814.085    -- CPU_ReadMem(2 bytes @ 0xFFFFFFFE)
T5E6C 002:814.465   Data:  AA AA
T5E6C 002:814.470 - 0.942ms returns 0xFFFFFFFF
T5E6C 002:814.476   JLINK_ReadMemEx(0xFFFFFFFE, 0x0002 Bytes, ..., Flags = 0x02000000)
T5E6C 002:814.483    -- CPU_ReadMem(64 bytes @ 0xFFFFFFC0)
T5E6C 002:814.978    -- CPU_ReadMem(2 bytes @ 0xFFFFFFFE)
T5E6C 002:815.324   Data:  AA AA
T5E6C 002:815.334 - 0.860ms returns 0xFFFFFFFF
T5E6C 002:815.342   JLINK_ReadMemEx(0xFFFFFFFE, 0x0002 Bytes, ..., Flags = 0x02000000)
T5E6C 002:815.351    -- CPU_ReadMem(64 bytes @ 0xFFFFFFC0)
